Sample in Buffer,Sample in Window,TRIGGER,Calibration_table/genblk1[0].MultiEdge_DelayChain_Top/AsynBus_shakehand/dstore_1[47:0],Calibration_table/genblk1[0].MultiEdge_DelayChain_Top/AsynBus_shakehand/dstore[447:48],Calibration_table/genblk1[0].MultiEdge_DelayChain_Top/AsynBus_shakehand/dout_valid
Radix - UNSIGNED,UNSIGNED,UNSIGNED,HEX,HEX,HEX
0,0,0,ffffffffffe0,0000000000000000000000000000000000000000000000000000000000000000000000000000000000000000000000000000,0
1,1,0,ffffffffffe0,0000000000000000000000000000000000000000000000000000000000000000000000000000000000000000000000000000,1
2,2,0,ffffffffffe0,0000000000000000000000000000000000000000000000000000000000000000000000000000000000000000000000000000,1
3,3,0,ffffffffffe0,0000000000000000000000000000000000000000000000000000000000000000000000000000000000000000000000000000,1
4,4,0,ffffffffffe0,0000000000000000000000000000000000000000000000000000000000000000000000000000000000000000000000000000,0
5,5,0,fffffffffffc,0000000000000000000000000000000000000000000000000000000000000000000000000000000000000000000000000000,0
6,6,0,017ffffffffc,0000000000000000000000000000000000000000000000000000000000000000000000000000000000000000000000000000,0
7,7,0,017ffffffffc,0000000000000000000000000000000000000000000000000000000000000000000000000000000000000000000000000000,0
8,8,0,017ffffffffc,0000000000000000000000000000000000000000000000000000000000000000000000000000000000000000000000000000,1
9,9,0,017ffffffffc,0000000000000000000000000000000000000000000000000000000000000000000000000000000000000000000000000000,1
10,10,0,017ffffffffc,0000000000000000000000000000000000000000000000000000000000000000000000000000000000000000000000000000,1
11,11,0,017ffffffffc,0000000000000000000000000000000000000000000000000000000000000000000000000000000000000000000000000000,0
12,12,0,017ffffffffc,0000000000000000000000000000000000000000000000000000000000000000000000000000000000000000000000000000,0
13,13,0,0007ffffffff,0000000000000000000000000000000000000000000000000000000000000000000000000000000000000000000000000000,0
14,14,0,0007ffffffff,0000000000000000000000000000000000000000000000000000000000000000000000000000000000000000000000000000,0
15,15,0,0007ffffffff,0000000000000000000000000000000000000000000000000000000000000000000000000000000000000000000000000000,0
16,16,0,0007ffffffff,0000000000000000000000000000000000000000000000000000000000000000000000000000000000000000000000000000,1
17,17,0,0007ffffffff,0000000000000000000000000000000000000000000000000000000000000000000000000000000000000000000000000000,1
18,18,0,0007ffffffff,0000000000000000000000000000000000000000000000000000000000000000000000000000000000000000000000000000,1
19,19,0,0007ffffffff,0000000000000000000000000000000000000000000000000000000000000000000000000000000000000000000000000000,0
20,20,0,0001ffffffff,0000000000000000000000000000000000000000000000000000000000000000000000000000000000000000000000000000,0
21,21,0,0001ffffffff,0000000000000000000000000000000000000000000000000000000000000000000000000000000000000000000000000000,0
22,22,0,0001ffffffff,0000000000000000000000000000000000000000000000000000000000000000000000000000000000000000000000000000,0
23,23,0,0001ffffffff,0000000000000000000000000000000000000000000000000000000000000000000000000000000000000000000000000000,1
24,24,0,0001ffffffff,0000000000000000000000000000000000000000000000000000000000000000000000000000000000000000000000000000,1
25,25,0,0001ffffffff,0000000000000000000000000000000000000000000000000000000000000000000000000000000000000000000000000000,1
26,26,0,0001ffffffff,0000000000000000000000000000000000000000000000000000000000000000000000000000000000000000000000000000,0
27,27,0,0000ffffffff,0000000000000000000000000000000000000000000000000000000000000000000000000000000000000000000000000000,0
28,28,0,0000ffffffff,0000000000000000000000000000000000000000000000000000000000000000000000000000000000000000000000000000,0
29,29,0,0000ffffffff,0000000000000000000000000000000000000000000000000000000000000000000000000000000000000000000000000000,0
30,30,0,0000ffffffff,0000000000000000000000000000000000000000000000000000000000000000000000000000000000000000000000000000,1
31,31,0,0000ffffffff,0000000000000000000000000000000000000000000000000000000000000000000000000000000000000000000000000000,1
32,32,0,0000ffffffff,0000000000000000000000000000000000000000000000000000000000000000000000000000000000000000000000000000,1
33,33,0,0000ffffffff,0000000000000000000000000000000000000000000000000000000000000000000000000000000000000000000000000000,0
34,34,0,0000ffffffff,0000000000000000000000000000000000000000000000000000000000000000000000000000000000000000000000000000,0
35,35,0,000000000000,0000000000000000000000000000000000000000000000000000000000000000000000000000000000000000000000000000,0
36,36,0,000000000000,0000000000000000000000000000000000000000000000000000000000000000000000000000000000000000000000000000,0
37,37,0,000000000000,0000000000000000000000000000000000000000000000000000000000000000000000000000000000000000000000000000,0
38,38,0,000000000000,0000000000000000000000000000000000000000000000000000000000000000000000000000000000000000000000000000,1
39,39,0,000000000000,0000000000000000000000000000000000000000000000000000000000000000000000000000000000000000000000000000,1
40,40,0,000000000000,0000000000000000000000000000000000000000000000000000000000000000000000000000000000000000000000000000,1
41,41,0,000000000000,0000000000000000000000000000000000000000000000000000000000000000000000000000000000000000000000000000,0
42,42,0,000000000000,0000000000000000000000000000000000000000000000000000000000000000000000000000000000000000000000000000,0
43,43,0,000000000000,0000000000000000000000000000000000000000000000000000000000000000000000000000000000000000000000000000,0
44,44,0,000000000000,0000000000000000000000000000000000000000000000000000000000000000000000000000000000000000000000000000,0
45,45,0,000000000000,0000000000000000000000000000000000000000000000000000000000000000000000000000000000000000000000000000,1
46,46,0,000000000000,0000000000000000000000000000000000000000000000000000000000000000000000000000000000000000000000000000,1
47,47,0,000000000000,0000000000000000000000000000000000000000000000000000000000000000000000000000000000000000000000000000,1
48,48,0,000000000000,0000000000000000000000000000000000000000000000000000000000000000000000000000000000000000000000000000,0
49,49,0,000000000000,0000000000000000000000000000000000000000000000000000000000000000000000000000000000000000000000000000,0
50,50,0,000000000000,0000000000000000000000000000000000000000000000000000000000000000000000000000000000000000000000000000,0
51,51,0,000000000000,0000000000000000000000000000000000000000000000000000000000000000000000000000000000000000000000000000,0
52,52,0,000000000000,0000000000000000000000000000000000000000000000000000000000000000000000000000000000000000000000000000,1
53,53,0,000000000000,0000000000000000000000000000000000000000000000000000000000000000000000000000000000000000000000000000,1
54,54,0,000000000000,0000000000000000000000000000000000000000000000000000000000000000000000000000000000000000000000000000,1
55,55,0,000000000000,0000000000000000000000000000000000000000000000000000000000000000000000000000000000000000000000000000,0
56,56,0,000000000000,0000000000000000000000000000000000000000000000000000000000000000000000000000000000000000000000000000,0
57,57,0,000000000000,0000000000000000000000000000000000000000000000000000000000000000000000000000000000000000000000000000,0
58,58,0,000000000000,0000000000000000000000000000000000000000000000000000000000000000000000000000000000000000000000000000,0
59,59,0,000000000000,0000000000000000000000000000000000000000000000000000000000000000000000000000000000000000000000000000,1
60,60,0,000000000000,0000000000000000000000000000000000000000000000000000000000000000000000000000000000000000000000000000,1
61,61,0,000000000000,0000000000000000000000000000000000000000000000000000000000000000000000000000000000000000000000000000,1
62,62,0,000000000000,0000000000000000000000000000000000000000000000000000000000000000000000000000000000000000000000000000,0
63,63,0,000000000000,0000000000000000000000000000000000000000000000000000000000000000000000000000000000000000000000000000,0
64,64,0,000000000000,0000000000000000000000000000000000000000000000000000000000000000000000000000000000000000000000000000,0
65,65,0,000000000000,0000000000000000000000000000000000000000000000000000000000000000000000000000000000000000000000000000,0
66,66,0,000000000000,0000000000000000000000000000000000000000000000000000000000000000000000000000000000000000000000000000,0
67,67,0,000000000000,0000000000000000000000000000000000000000000000000000000000000000000000000000000000000000000000000000,1
68,68,0,000000000000,0000000000000000000000000000000000000000000000000000000000000000000000000000000000000000000000000000,1
69,69,0,000000000000,0000000000000000000000000000000000000000000000000000000000000000000000000000000000000000000000000000,1
70,70,0,000000000000,0000000000000000000000000000000000000000000000000000000000000000000000000000000000000000000000000000,0
71,71,0,000000000000,0000000000000000000000000000000000000000000000000000000000000000000000000000000000000000000000000000,0
72,72,0,000000000000,0000000000000000000000000000000000000000000000000000000000000000000000000000000000000000000000000000,0
73,73,0,000000000000,0000000000000000000000000000000000000000000000000000000000000000000000000000000000000000000000000000,0
74,74,0,000000000000,0000000000000000000000000000000000000000000000000000000000000000000000000000000000000000000000000000,1
75,75,0,000000000000,0000000000000000000000000000000000000000000000000000000000000000000000000000000000000000000000000000,1
76,76,0,000000000000,0000000000000000000000000000000000000000000000000000000000000000000000000000000000000000000000000000,1
77,77,0,000000000000,0000000000000000000000000000000000000000000000000000000000000000000000000000000000000000000000000000,0
78,78,0,000000000000,0000000000000000000000000000000000000000000000000000000000000000000000000000000000000000000000000000,0
79,79,0,000000000000,0000000000000000000000000000000000000000000000000000000000000000000000000000000000000000000000000000,0
80,80,0,000000000000,0000000000000000000000000000000000000000000000000000000000000000000000000000000000000000000000000000,0
81,81,0,000000000000,0000000000000000000000000000000000000000000000000000000000000000000000000000000000000000000000000000,1
82,82,0,000000000000,0000000000000000000000000000000000000000000000000000000000000000000000000000000000000000000000000000,1
83,83,0,000000000000,0000000000000000000000000000000000000000000000000000000000000000000000000000000000000000000000000000,1
84,84,0,000000000000,0000000000000000000000000000000000000000000000000000000000000000000000000000000000000000000000000000,0
85,85,0,000000000000,0000000000000000000000000000000000000000000000000000000000000000000000000000000000000000000000000000,0
86,86,0,000000000000,0000000000000000000000000000000000000000000000000000000000000000000000000000000000000000000000000000,0
87,87,0,000000000000,0000000000000000000000000000000000000000000000000000000000000000000000000000000000000000000000000000,0
88,88,0,000000000000,0000000000000000000000000000000000000000000000000000000000000000000000000000000000000000000000000000,1
89,89,0,000000000000,0000000000000000000000000000000000000000000000000000000000000000000000000000000000000000000000000000,1
90,90,0,000000000000,0000000000000000000000000000000000000000000000000000000000000000000000000000000000000000000000000000,1
91,91,0,000000000000,0000000000000000000000000000000000000000000000000000000000000000000000000000000000000000000000000000,0
92,92,0,000000000000,0000000000000000000000000000000000000000000000000000000000000000000000000000000000000000000000000000,0
93,93,0,000000000000,0000000000000000000000000000000000000000000000000000000000000000000000000000000000000000000000000000,0
94,94,0,000000000000,0000000000000000000000000000000000000000000000000000000000000000000000000000000000000000000000000000,0
95,95,0,000000000000,0000000000000000000000000000000000000000000000000000000000000000000000000000000000000000000000000000,1
96,96,0,000000000000,0000000000000000000000000000000000000000000000000000000000000000000000000000000000000000000000000000,1
97,97,0,000000000000,0000000000000000000000000000000000000000000000000000000000000000000000000000000000000000000000000000,1
98,98,0,000000000000,0000000000000000000000000000000000000000000000000000000000000000000000000000000000000000000000000000,0
99,99,0,000000000000,0000000000000000000000000000000000000000000000000000000000000000000000000000000000000000000000000000,0
100,100,0,000000000000,0000000000000000000000000000000000000000000000000000000000000000000000000000000000000000000000000000,0
101,101,0,000000000000,0000000000000000000000000000000000000000000000000000000000000000000000000000000000000000000000000000,0
102,102,0,000000000000,0000000000000000000000000000000000000000000000000000000000000000000000000000000000000000000000000000,0
103,103,0,000000000000,0000000000000000000000000000000000000000000000000000000000000000000000000000000000000000000000000000,1
104,104,0,000000000000,0000000000000000000000000000000000000000000000000000000000000000000000000000000000000000000000000000,1
105,105,0,000000000000,0000000000000000000000000000000000000000000000000000000000000000000000000000000000000000000000000000,1
106,106,0,000000000000,0000000000000000000000000000000000000000000000000000000000000000000000000000000000000000000000000000,0
107,107,0,000000000000,0000000000000000000000000000000000000000000000000000000000000000000000000000000000000000000000000000,0
108,108,0,000000000000,0000000000000000000000000000000000000000000000000000000000000000000000000000000000000000000000000000,0
109,109,0,000000000000,0000000000000000000000000000000000000000000000000000000000000000000000000000000000000000000000000000,0
110,110,0,000000000000,0000000000000000000000000000000000000000000000000000000000000000000000000000000000000000000000000000,1
111,111,0,000000000000,0000000000000000000000000000000000000000000000000000000000000000000000000000000000000000000000000000,1
112,112,0,000000000000,0000000000000000000000000000000000000000000000000000000000000000000000000000000000000000000000000000,1
113,113,0,000000000000,0000000000000000000000000000000000000000000000000000000000000000000000000000000000000000000000000000,0
114,114,0,000000000000,0000000000000000000000000000000000000000000000000000000000000000000000000000000000000000000000000000,0
115,115,0,000000000000,0000000000000000000000000000000000000000000000000000000000000000000000000000000000000000000000000000,0
116,116,0,000000000000,0000000000000000000000000000000000000000000000000000000000000000000000000000000000000000000000000000,0
117,117,0,000000000000,0000000000000000000000000000000000000000000000000000000000000000000000000000000000000000000000000000,1
118,118,0,000000000000,0000000000000000000000000000000000000000000000000000000000000000000000000000000000000000000000000000,1
119,119,0,000000000000,0000000000000000000000000000000000000000000000000000000000000000000000000000000000000000000000000000,1
120,120,0,000000000000,0000000000000000000000000000000000000000000000000000000000000000000000000000000000000000000000000000,0
121,121,0,000000000000,0000000000000000000000000000000000000000000000000000000000000000000000000000000000000000000000000000,0
122,122,0,000000000000,0000000000000000000000000000000000000000000000000000000000000000000000000000000000000000000000000000,0
123,123,0,000000000000,0000000000000000000000000000000000000000000000000000000000000000000000000000000000000000000000000000,0
124,124,0,000000000000,0000000000000000000000000000000000000000000000000000000000000000000000000000000000000000000000000000,1
125,125,0,000000000000,0000000000000000000000000000000000000000000000000000000000000000000000000000000000000000000000000000,1
126,126,0,000000000000,0000000000000000000000000000000000000000000000000000000000000000000000000000000000000000000000000000,1
127,127,0,000000000000,0000000000000000000000000000000000000000000000000000000000000000000000000000000000000000000000000000,0
128,128,0,000000000000,0000000000000000000000000000000000000000000000000000000000000000000000000000000000000000000000000000,0
129,129,0,000000000000,0000000000000000000000000000000000000000000000000000000000000000000000000000000000000000000000000000,0
130,130,0,000000000000,0000000000000000000000000000000000000000000000000000000000000000000000000000000000000000000000000000,0
131,131,0,000000000000,0000000000000000000000000000000000000000000000000000000000000000000000000000000000000000000000000000,1
132,132,0,000000000000,0000000000000000000000000000000000000000000000000000000000000000000000000000000000000000000000000000,1
133,133,0,000000000000,0000000000000000000000000000000000000000000000000000000000000000000000000000000000000000000000000000,1
134,134,0,000000000000,0000000000000000000000000000000000000000000000000000000000000000000000000000000000000000000000000000,0
135,135,0,000000000000,0000000000000000000000000000000000000000000000000000000000000000000000000000000000000000000000000000,0
136,136,0,000000000000,0000000000000000000000000000000000000000000000000000000000000000000000000000000000000000000000000000,0
137,137,0,000000000000,0000000000000000000000000000000000000000000000000000000000000000000000000000000000000000000000000000,0
138,138,0,000000000000,0000000000000000000000000000000000000000000000000000000000000000000000000000000000000000000000000000,0
139,139,0,000000000000,0000000000000000000000000000000000000000000000000000000000000000000000000000000000000000000000000000,1
140,140,0,000000000000,0000000000000000000000000000000000000000000000000000000000000000000000000000000000000000000000000000,1
141,141,0,000000000000,0000000000000000000000000000000000000000000000000000000000000000000000000000000000000000000000000000,1
142,142,0,000000000000,0000000000000000000000000000000000000000000000000000000000000000000000000000000000000000000000000000,0
143,143,0,000000000000,0000000000000000000000000000000000000000000000000000000000000000000000000000000000000000000000000000,0
144,144,0,000000000000,0000000000000000000000000000000000000000000000000000000000000000000000000000000000000000000000000000,0
145,145,0,000000000000,0000000000000000000000000000000000000000000000000000000000000000000000000000000000000000000000000000,0
146,146,0,000000000000,0000000000000000000000000000000000000000000000000000000000000000000000000000000000000000000000000000,1
147,147,0,000000000000,0000000000000000000000000000000000000000000000000000000000000000000000000000000000000000000000000000,1
148,148,0,000000000000,0000000000000000000000000000000000000000000000000000000000000000000000000000000000000000000000000000,1
149,149,0,000000000000,0000000000000000000000000000000000000000000000000000000000000000000000000000000000000000000000000000,0
150,150,0,000000000000,0000000000000000000000000000000000000000000000000000000000000000000000000000000000000000000000000000,0
151,151,0,000000000000,0000000000000000000000000000000000000000000000000000000000000000000000000000000000000000000000000000,0
152,152,0,000000000000,0000000000000000000000000000000000000000000000000000000000000000000000000000000000000000000000000000,0
153,153,0,000000000000,0000000000000000000000000000000000000000000000000000000000000000000000000000000000000000000000000000,1
154,154,0,000000000000,0000000000000000000000000000000000000000000000000000000000000000000000000000000000000000000000000000,1
155,155,0,000000000000,0000000000000000000000000000000000000000000000000000000000000000000000000000000000000000000000000000,1
156,156,0,000000000000,0000000000000000000000000000000000000000000000000000000000000000000000000000000000000000000000000000,0
